; CSV, generated by libsigrok4DSL 0.2.0 on Fri Jul 28 23:30:36 2023
; Channels (4/16)
; Sample rate: 50 MHz
; Sample count: 25.960 M Samples
Time(s), XSTL, D0, D1, SPV
0,1,0,0,1
0.00500012,1,0,0,0
0.00501446,1,0,0,1
0.0050514,0,0,0,1
0.0050515,1,0,0,1
0.00506574,0,0,1,1
0.00506582,1,0,1,1
0.00507824,1,0,0,1
0.00508008,0,0,0,1
0.00508016,1,0,0,1
0.0050944,0,0,0,1
0.00509442,0,0,1,1
0.0050945,1,0,1,1
0.0051069,1,0,0,1
0.00510874,0,0,0,1
0.00510882,1,0,0,1
0.00512308,0,0,0,1
0.00512316,1,0,0,1
0.0051374,0,0,0,1
0.00513742,0,0,1,1
0.0051375,1,0,1,1
0.0051499,1,0,0,1
0.00515174,0,0,0,1
0.00515182,1,0,0,1
0.00516608,0,0,0,1
0.00516616,1,0,0,1
0.0051804,0,0,0,1
0.0051805,1,0,0,1
0.00519474,0,0,0,1
0.00519482,1,0,0,1
0.00520908,0,0,0,1
0.00520916,1,0,0,1
0.0052234,0,0,0,1
0.0052235,1,0,0,1
0.00523774,0,0,0,1
0.00523782,1,0,0,1
0.00525208,0,0,0,1
0.00525216,1,0,0,1
0.0052664,0,0,0,1
0.0052665,1,0,0,1
0.00528074,0,0,0,1
0.00528082,1,0,0,1
0.00529508,0,0,0,1
0.00529516,1,0,0,1
0.0053094,0,0,0,1
0.0053095,1,0,0,1
0.00532374,0,0,0,1
0.00532382,1,0,0,1
0.00533808,0,0,0,1
0.00533816,1,0,0,1
0.0053524,0,0,0,1
0.00535248,1,0,0,1
0.00536674,0,0,1,1
0.00536682,1,0,1,1
0.00537924,1,0,0,1
0.00538106,0,0,0,1
0.00538116,1,0,0,1
0.0053954,0,0,0,1
0.00539548,1,0,0,1
0.00540974,0,0,0,1
0.00540982,1,0,0,1
0.00542406,0,0,0,1
0.00542408,0,0,1,1
0.00542416,1,0,1,1
0.00543656,1,0,0,1
0.0054384,0,0,0,1
0.00543848,1,0,0,1
0.00545274,0,1,0,1
0.00545282,1,1,0,1
0.00546524,1,0,0,1
0.00546706,0,0,0,1
0.00546716,1,0,0,1
0.0054814,0,0,0,1
0.00548148,1,0,0,1
0.00549574,0,0,0,1
0.00549582,1,0,0,1
0.00551006,0,0,0,1
0.00551016,1,0,0,1
0.0055244,0,0,0,1
0.00552448,1,0,0,1
0.00553874,0,0,0,1
0.00553882,1,0,0,1
0.00555306,0,0,0,1
0.00555316,1,0,0,1
0.0055674,0,0,1,1
0.00556748,1,0,1,1
0.0055799,1,0,0,1
0.00558174,0,0,0,1
0.00558182,1,0,0,1
0.00559606,0,0,0,1
0.00559608,0,1,0,1
0.00559616,1,1,0,1
0.00560856,1,0,0,1
0.0056104,0,0,1,1
0.00561048,1,0,1,1
0.0056229,1,0,0,1
0.00562474,0,0,1,1
0.00562482,1,0,1,1
0.00563724,1,0,0,1
0.00563906,0,0,0,1
0.00563908,0,1,0,1
0.00563916,1,1,0,1
0.00565156,1,0,0,1
0.0056534,0,0,0,1
0.00565348,1,0,0,1
0.00566774,0,0,0,1
0.00566782,1,0,0,1
0.00568206,0,0,0,1
0.00568214,1,0,0,1
0.0056964,0,0,1,1
0.00569648,1,0,1,1
0.0057089,1,0,0,1
0.00571074,0,0,0,1
0.00571082,1,0,0,1
0.00572506,0,0,0,1
0.00572514,1,0,0,1
0.0057394,0,0,0,1
0.00573948,1,0,0,1
0.00575374,0,0,0,1
0.00575382,1,0,0,1
0.00576806,0,0,0,1
0.00576814,1,0,0,1
0.0057824,0,1,0,1
0.00578248,1,1,0,1
0.0057949,1,0,0,1
0.00579672,0,0,0,1
0.00579682,1,0,0,1
0.00581106,0,0,0,1
0.00581114,1,0,0,1
0.0058254,0,1,0,1
0.00582548,1,1,0,1
0.0058379,1,0,0,1
0.00583972,0,0,0,1
0.00583982,1,0,0,1
0.00585406,0,0,0,1
0.00585414,1,0,0,1
0.0058684,0,1,0,1
0.00586848,1,1,0,1
0.0058809,1,0,0,1
0.00588272,0,0,0,1
0.00588274,0,1,0,1
0.00588282,1,1,0,1
0.00589522,1,0,0,1
0.00589706,0,0,0,1
0.00589714,1,0,0,1
0.0059114,0,0,1,1
0.00591148,1,0,1,1
0.0059239,1,0,0,1
0.00592572,0,0,0,1
0.00592574,0,0,1,1
0.00592582,1,0,1,1
0.00593822,1,0,0,1
0.00594006,0,0,0,1
0.00594014,1,0,0,1
0.0059544,0,0,0,1
0.00595448,1,0,0,1
0.00596872,0,0,0,1
0.00596882,1,0,0,1
0.00598306,0,0,0,1
0.00598314,1,0,0,1
0.0059974,0,0,0,1
0.00599748,1,0,0,1
0.00601172,0,0,1,1
0.00601182,1,0,1,1
0.00602422,1,0,0,1
0.00602606,0,0,0,1
0.00602614,1,0,0,1
0.0060404,0,0,0,1
0.00604048,1,0,0,1
0.00605472,0,0,0,1
0.0060548,1,0,0,1
0.00606906,0,0,0,1
0.00606914,1,0,0,1
0.0060834,0,1,0,1
0.00608348,1,1,0,1
0.0060959,1,0,0,1
0.00609772,0,0,0,1
0.0060978,1,0,0,1
0.00611206,0,1,0,1
0.00611214,1,1,0,1
0.00612456,1,0,0,1
0.00612638,0,0,0,1
0.00612648,1,0,0,1
0.00614072,0,0,1,1
0.0061408,1,0,1,1
0.00615322,1,0,0,1
0.00615506,0,0,1,1
0.00615514,1,0,1,1
0.00616756,1,0,0,1
0.00616938,0,0,0,1
0.00616948,1,0,0,1
0.00618372,0,0,0,1
0.0061838,1,0,0,1
0.00619806,0,0,0,1
0.00619814,1,0,0,1
0.00621238,0,0,0,1
0.00621248,1,0,0,1
0.00622672,0,0,0,1
0.0062268,1,0,0,1
0.00624106,0,0,0,1
0.00624114,1,0,0,1
0.00625538,0,0,0,1
0.00625548,1,0,0,1
0.00626972,0,0,0,1
0.0062698,1,0,0,1
0.00628406,0,0,1,1
0.00628414,1,0,1,1
0.00629656,1,0,0,1
0.00629838,0,0,0,1
0.00629848,1,0,0,1
0.00631272,0,1,0,1
0.0063128,1,1,0,1
0.00632522,1,0,0,1
0.00632706,0,0,0,1
0.00632714,1,0,0,1
0.00634138,0,0,0,1
0.00634148,1,0,0,1
0.00635572,0,0,0,1
0.0063558,1,0,0,1
0.00637006,0,0,1,1
0.00637014,1,0,1,1
0.00638256,1,0,0,1
0.00638438,0,0,0,1
0.00638448,1,0,0,1
0.00639872,0,0,0,1
0.0063988,1,0,0,1
0.00641306,0,0,0,1
0.00641314,1,0,0,1
0.00642738,0,0,1,1
0.00642746,1,0,1,1
0.00643988,1,0,0,1
0.00644172,0,1,0,1
0.0064418,1,1,0,1
0.00645422,1,0,0,1
0.00645606,0,0,0,1
0.00645614,1,0,0,1
0.00647038,0,0,0,1
0.00647046,1,0,0,1
0.00648472,0,0,0,1
0.0064848,1,0,0,1
0.00649904,0,0,0,1
0.00649914,1,0,0,1
0.00651338,0,0,0,1
0.00651346,1,0,0,1
0.00652772,0,0,0,1
0.0065278,1,0,0,1
0.00654204,0,0,0,1
0.00654214,1,0,0,1
0.00655638,0,0,0,1
0.00655646,1,0,0,1
0.00657072,0,0,0,1
0.0065708,1,0,0,1
0.00658504,0,0,0,1
0.00658514,1,0,0,1
0.00659938,0,0,0,1
0.00659946,1,0,0,1
0.00661372,0,0,0,1
0.0066138,1,0,0,1
0.00662804,0,0,0,1
0.00662814,1,0,0,1
0.00664238,0,1,0,1
0.00664246,1,1,0,1
0.00665488,1,0,0,1
0.00665672,0,0,1,1
0.0066568,1,0,1,1
0.00666922,1,0,0,1
0.00667104,0,0,0,1
0.00667106,0,0,1,1
0.00667114,1,0,1,1
0.00668354,1,0,0,1
0.00668538,0,0,1,1
0.00668546,1,0,1,1
0.00669788,1,0,0,1
0.00669972,0,0,0,1
0.0066998,1,0,0,1
0.00671404,0,0,0,1
0.00671414,1,0,0,1
0.00672838,0,0,1,1
0.00672846,1,0,1,1
0.00674088,1,0,0,1
0.00674272,0,0,0,1
0.0067428,1,0,0,1
0.00675704,0,0,0,1
0.00675714,1,0,0,1
0.00677138,0,0,0,1
0.00677146,1,0,0,1
0.00678572,0,0,0,1
0.0067858,1,0,0,1
0.00680004,0,0,0,1
0.00680012,1,0,0,1
0.00681438,0,0,0,1
0.00681446,1,0,0,1
0.00682872,0,0,0,1
0.0068288,1,0,0,1
0.00684304,0,0,0,1
0.00684312,1,0,0,1
0.00685738,0,0,0,1
0.00685746,1,0,0,1
0.00687172,0,1,0,1
0.0068718,1,1,0,1
0.00688422,1,0,0,1
0.00688604,0,0,1,1
0.00688612,1,0,1,1
0.00689854,1,0,0,1
0.00690038,0,0,1,1
0.00690046,1,0,1,1
0.00691288,1,0,0,1
0.0069147,0,0,0,1
0.0069148,1,0,0,1
0.00692904,0,0,0,1
0.00692912,1,0,0,1
0.00694338,0,0,0,1
0.00694346,1,0,0,1
0.0069577,0,0,0,1
0.00695772,0,0,1,1
0.0069578,1,0,1,1
0.0069702,1,0,0,1
0.00697204,0,0,0,1
0.00697212,1,0,0,1
0.00698638,0,0,0,1
0.00698646,1,0,0,1
0.0070007,0,0,0,1
0.0070008,1,0,0,1
0.00701504,0,0,0,1
0.00701512,1,0,0,1
0.00702938,0,0,0,1
0.00702946,1,0,0,1
0.0070437,0,0,0,1
0.0070438,1,0,0,1
0.00705804,0,0,0,1
0.00705812,1,0,0,1
0.00707238,0,0,0,1
0.00707246,1,0,0,1
0.0070867,0,0,0,1
0.0070868,1,0,0,1
0.00710104,0,1,0,1
0.00710112,1,1,0,1
0.00711354,1,0,0,1
0.00711538,0,0,0,1
0.00711546,1,0,0,1
0.0071297,0,0,0,1
0.0071298,1,0,0,1
0.00714404,0,0,0,1
0.00714412,1,0,0,1
0.00715838,0,0,1,1
0.00715846,1,0,1,1
0.00717088,1,0,0,1
0.0071727,0,0,1,1
0.00717278,1,0,1,1
0.0071852,1,0,0,1
0.00718704,0,0,0,1
0.00718712,1,0,0,1
0.00720138,0,0,0,1
0.00720146,1,0,0,1
0.0072157,0,0,0,1
0.00721578,1,0,0,1
0.00723004,0,0,1,1
0.00723012,1,0,1,1
0.00724254,1,0,0,1
0.00724436,0,0,0,1
0.00724446,1,0,0,1
0.0072587,0,0,0,1
0.00725878,1,0,0,1
0.00727304,0,0,0,1
0.00727312,1,0,0,1
0.00728736,0,0,0,1
0.00728746,1,0,0,1
0.0073017,0,0,0,1
0.00730178,1,0,0,1
0.00731604,0,0,0,1
0.00731612,1,0,0,1
0.00733036,0,0,0,1
0.00733046,1,0,0,1
0.0073447,0,0,0,1
0.00734478,1,0,0,1
0.00735904,0,0,0,1
0.00735912,1,0,0,1
0.00737336,0,0,0,1
0.00737346,1,0,0,1
0.0073877,0,0,1,1
0.00738778,1,0,1,1
0.0074002,1,0,0,1
0.00740204,0,0,1,1
0.00740212,1,0,1,1
0.00741454,1,0,0,1
0.00741636,0,0,0,1
0.00741646,1,0,0,1
0.0074307,0,0,0,1
0.00743078,1,0,0,1
0.00744504,0,0,0,1
0.00744512,1,0,0,1
0.00745936,0,0,1,1
0.00745946,1,0,1,1
0.00747186,1,0,0,1
0.0074737,0,0,0,1
0.00747378,1,0,0,1
0.00748804,0,0,0,1
0.00748812,1,0,0,1
0.00750236,0,0,0,1
0.00750246,1,0,0,1
0.0075167,0,0,0,1
0.00751678,1,0,0,1
0.00753104,0,0,0,1
0.00753112,1,0,0,1
0.00754536,0,0,0,1
0.00754544,1,0,0,1
0.0075597,0,0,0,1
0.00755978,1,0,0,1
0.00757404,0,0,0,1
0.00757412,1,0,0,1
0.00758836,0,0,0,1
0.00758844,1,0,0,1
0.0076027,0,0,0,1
0.00760278,1,0,0,1
0.00761702,0,0,0,1
0.00761704,0,0,1,1
0.00761712,1,0,1,1
0.00762954,1,0,0,1
0.00763136,0,0,1,1
0.00763144,1,0,1,1
0.00764386,1,0,0,1
0.0076457,0,0,0,1
0.00764578,1,0,0,1
0.00766002,0,0,0,1
0.00766012,1,0,0,1
0.00767436,0,0,0,1
0.00767444,1,0,0,1
0.0076887,0,0,1,1
0.00768878,1,0,1,1
0.0077012,1,0,0,1
0.00770302,0,0,0,1
0.00770312,1,0,0,1
0.00771736,0,0,0,1
0.00771744,1,0,0,1
0.0077317,0,0,0,1
0.00773178,1,0,0,1
0.00774602,0,0,0,1
0.00774612,1,0,0,1
0.00776036,0,0,0,1
0.00776044,1,0,0,1
0.0077747,0,0,0,1
0.00777478,1,0,0,1
0.00778902,0,0,0,1
0.00778912,1,0,0,1
0.00780336,0,0,0,1
0.00780344,1,0,0,1
0.0078177,0,0,0,1
0.00781778,1,0,0,1
0.00783202,0,0,0,1
0.00783212,1,0,0,1
0.00784636,0,0,1,1
0.00784644,1,0,1,1
0.00785886,1,0,0,1
0.0078607,0,0,1,1
0.00786078,1,0,1,1
0.0078732,1,0,0,1
0.00787502,0,0,0,1
0.00787512,1,0,0,1
0.00788936,0,0,0,1
0.00788944,1,0,0,1
0.0079037,0,0,0,1
0.00790378,1,0,0,1
0.00791802,0,0,0,1
0.0079181,1,0,0,1
0.00793236,0,0,0,1
0.00793244,1,0,0,1
0.0079467,0,0,0,1
0.00794678,1,0,0,1
0.00796102,0,0,0,1
0.0079611,1,0,0,1
0.00797536,0,0,0,1
0.00797544,1,0,0,1
0.0079897,0,0,0,1
0.00798978,1,0,0,1
0.00800402,0,0,0,1
0.0080041,1,0,0,1
0.00801836,0,0,0,1
0.00801844,1,0,0,1
0.00803268,0,0,0,1
0.00803278,1,0,0,1
0.00804702,0,0,0,1
0.0080471,1,0,0,1
0.00806136,0,0,0,1
0.00806144,1,0,0,1
0.00807568,0,0,0,1
0.0080757,0,0,1,1
0.00807578,1,0,1,1
0.00808818,1,0,0,1
0.00809002,0,0,1,1
0.0080901,1,0,1,1
0.00810252,1,0,0,1
0.00810436,0,0,0,1
0.00810444,1,0,0,1
0.00811868,0,0,0,1
0.00811878,1,0,0,1
0.00813302,0,0,0,1
0.0081331,1,0,0,1
0.00814736,0,0,1,1
0.00814744,1,0,1,1
0.00815986,1,0,0,1
0.00816168,0,0,0,1
0.0081617,0,0,1,1
0.00816178,1,0,1,1
0.00817418,1,0,0,1
0.00817602,0,0,0,1
0.0081761,1,0,0,1
0.00819036,0,0,0,1
0.00819044,1,0,0,1
0.00820468,0,0,0,1
0.00820478,1,0,0,1
0.00821902,0,0,0,1
0.0082191,1,0,0,1
0.00823336,0,0,0,1
0.00823344,1,0,0,1
0.00824768,0,0,0,1
0.00824776,1,0,0,1
0.00826202,0,0,0,1
0.0082621,1,0,0,1
0.00827636,0,0,0,1
0.00827644,1,0,0,1
0.00829068,0,0,0,1
0.00829076,1,0,0,1
0.00830502,0,0,1,1
0.0083051,1,0,1,1
0.00831752,1,0,0,1
0.00831936,0,0,1,1
0.00831944,1,0,1,1
0.00833186,1,0,0,1
0.00833368,0,0,0,1
0.00833376,1,0,0,1
0.00834802,0,0,0,1
0.0083481,1,0,0,1
0.00836234,0,0,0,1
0.00836244,1,0,0,1
0.00837668,0,0,1,1
0.00837676,1,0,1,1
0.00838918,1,0,0,1
0.00839102,0,0,1,1
0.0083911,1,0,1,1
0.00840352,1,0,0,1
0.00840534,0,0,0,1
0.00840544,1,0,0,1
0.00841968,0,0,0,1
0.00841976,1,0,0,1
0.00843402,0,0,0,1
0.0084341,1,0,0,1
0.00844834,0,0,0,1
0.00844844,1,0,0,1
0.00846268,0,0,0,1
0.00846276,1,0,0,1
0.00847702,0,0,0,1
0.0084771,1,0,0,1
0.00849134,0,0,0,1
0.00849144,1,0,0,1
0.00850568,0,0,0,1
0.00850576,1,0,0,1
0.00852002,0,0,0,1
0.0085201,1,0,0,1
0.00853434,0,0,0,1
0.00853444,1,0,0,1
0.00854868,0,0,0,1
0.00854876,1,0,0,1
0.00856302,0,0,0,1
0.0085631,1,0,0,1
0.00857734,0,0,0,1
0.00857744,1,0,0,1
0.00859168,0,0,0,1
0.00859176,1,0,0,1
0.00860602,0,0,0,1
0.0086061,1,0,0,1
0.00862034,0,0,0,1
0.00862044,1,0,0,1
0.00863468,0,0,0,1
0.00863476,1,0,0,1
0.00864902,0,0,0,1
0.0086491,1,0,0,1
0.00866334,0,0,0,1
0.00866342,1,0,0,1
0.00867768,0,0,0,1
0.00867776,1,0,0,1
0.00869202,0,0,0,1
0.0086921,1,0,0,1
0.00870634,0,1,0,1
0.00870642,1,1,0,1
0.00871884,1,0,0,1
0.00872068,0,0,0,1
0.00872076,1,0,0,1
0.008735,0,0,0,1
0.0087351,1,0,0,1
0.00874934,0,0,0,1
0.00874942,1,0,0,1
0.00876368,0,0,0,1
0.00876376,1,0,0,1
0.008778,0,0,0,1
0.0087781,1,0,0,1
0.00879234,0,0,0,1
0.00879242,1,0,0,1
0.00880668,0,0,0,1
0.00880676,1,0,0,1
0.008821,0,0,0,1
0.0088211,1,0,0,1
0.00883534,0,0,0,1
0.00883542,1,0,0,1
0.00884968,0,0,0,1
0.00884976,1,0,0,1
0.008864,0,0,0,1
0.0088641,1,0,0,1
0.00887834,0,0,0,1
0.00887842,1,0,0,1
0.00889268,0,0,0,1
0.00889276,1,0,0,1
0.008907,0,0,0,1
0.0089071,1,0,0,1
0.00892134,0,0,0,1
0.00892142,1,0,0,1
0.00893568,0,0,0,1
0.00893576,1,0,0,1
0.00895,0,0,0,1
0.0089501,1,0,0,1
0.00896434,0,0,0,1
0.00896442,1,0,0,1
0.00897868,0,0,0,1
0.00897876,1,0,0,1
0.008993,0,0,0,1
0.00899308,1,0,0,1
0.00900734,0,0,0,1
0.00900742,1,0,0,1
0.00902168,0,0,0,1
0.00902176,1,0,0,1
0.009036,0,0,0,1
0.00903608,1,0,0,1
0.00905034,0,0,0,1
0.00905042,1,0,0,1
0.00906468,0,0,0,1
0.00906476,1,0,0,1
0.009079,0,0,0,1
0.00907908,1,0,0,1
0.00909334,0,0,0,1
0.00909342,1,0,0,1
0.00910766,0,0,0,1
0.00910776,1,0,0,1
0.009122,0,0,0,1
0.00912208,1,0,0,1
0.00913634,0,0,0,1
0.00913642,1,0,0,1
0.00915066,0,0,0,1
0.00915076,1,0,0,1
0.009165,0,0,0,1
0.00916508,1,0,0,1
0.00917934,0,0,0,1
0.00917942,1,0,0,1
0.00919366,0,0,0,1
0.00919376,1,0,0,1
0.009208,0,0,0,1
0.00920808,1,0,0,1
0.00922234,0,0,0,1
0.00922242,1,0,0,1
0.00923666,0,0,0,1
0.00923676,1,0,0,1
0.009251,0,0,0,1
0.00925108,1,0,0,1
0.00926534,0,0,0,1
0.00926542,1,0,0,1
0.00927966,0,0,0,1
0.00927976,1,0,0,1
0.009294,0,0,0,1
0.00929408,1,0,0,1
0.00930834,0,0,0,1
0.00930842,1,0,0,1
0.00932266,0,0,0,1
0.00932276,1,0,0,1
0.009337,0,0,0,1
0.00933708,1,0,0,1
0.00935134,0,0,0,1
0.00935142,1,0,0,1
0.00936566,0,0,0,1
0.00936574,1,0,0,1
0.00938,0,0,0,1
0.00938008,1,0,0,1
0.00939434,0,0,0,1
0.00939442,1,0,0,1
0.00940866,0,0,0,1
0.00940874,1,0,0,1
0.009423,0,0,0,1
0.00942308,1,0,0,1
0.00943734,0,0,0,1
0.00943742,1,0,0,1
0.00945166,0,0,0,1
0.00945174,1,0,0,1
0.009466,0,0,0,1
0.00946608,1,0,0,1
0.00948034,0,0,0,1
0.00948042,1,0,0,1
0.00949466,0,0,0,1
0.00949474,1,0,0,1
0.009509,0,0,0,1
0.00950908,1,0,0,1
0.00952332,0,0,0,1
0.00952342,1,0,0,1
0.00953766,0,0,0,1
0.00953774,1,0,0,1
0.009552,0,0,0,1
0.00955208,1,0,0,1
0.00956632,0,0,0,1
0.00956642,1,0,0,1
0.00958066,0,0,0,1
0.00958074,1,0,0,1
0.009595,0,0,0,1
0.00959508,1,0,0,1
0.00960932,0,0,0,1
0.00960942,1,0,0,1
0.00962366,0,0,0,1
0.00962374,1,0,0,1
0.009638,0,0,0,1
0.00963808,1,0,0,1
0.00965232,0,0,0,1
0.00965242,1,0,0,1
0.00966666,0,0,0,1
0.00966674,1,0,0,1
0.009681,0,0,0,1
0.00968108,1,0,0,1
0.00969532,0,0,0,1
0.00969542,1,0,0,1
0.00970966,0,0,0,1
0.00970974,1,0,0,1
0.009724,0,0,0,1
0.00972408,1,0,0,1
0.00973832,0,0,0,1
0.0097384,1,0,0,1
0.00975266,0,0,0,1
0.00975274,1,0,0,1
0.009767,0,0,0,1
0.00976708,1,0,0,1
0.00978132,0,0,0,1
0.0097814,1,0,0,1
0.00979566,0,0,0,1
0.00979574,1,0,0,1
0.00981,0,0,0,1
0.00981008,1,0,0,1
0.00982432,0,0,0,1
0.0098244,1,0,0,1
0.00983866,0,0,0,1
0.00983874,1,0,0,1
0.00985298,0,0,0,1
0.00985308,1,0,0,1
0.00986732,0,0,0,1
0.0098674,1,0,0,1
0.00988166,0,0,0,1
0.00988174,1,0,0,1
0.00989598,0,0,0,1
0.00989608,1,0,0,1
0.00991032,0,0,0,1
0.0099104,1,0,0,1
0.00992466,0,0,0,1
0.00992474,1,0,0,1
0.00993898,0,0,0,1
0.00993908,1,0,0,1
0.00995332,0,0,0,1
0.0099534,1,0,0,1
0.00996766,0,0,0,1
0.00996774,1,0,0,1
0.00998198,0,0,0,1
0.00998208,1,0,0,1
0.00999632,0,0,0,1
0.0099964,1,0,0,1
0.01001066,0,0,0,1
0.01001074,1,0,0,1
0.01002498,0,0,0,1
0.01002508,1,0,0,1
0.01003932,0,0,0,1
0.0100394,1,0,0,1
0.01005366,0,0,0,1
0.01005374,1,0,0,1
0.01006798,0,0,0,1
0.01006808,1,0,0,1
0.01008232,0,0,0,1
0.0100824,1,0,0,1
0.01009666,0,0,0,1
0.01009674,1,0,0,1
0.01011098,0,0,0,1
0.01011106,1,0,0,1
0.01012532,0,0,0,1
0.0101254,1,0,0,1
0.01013966,0,0,0,1
0.01013974,1,0,0,1
0.01015398,0,0,0,1
0.01015406,1,0,0,1
0.01016832,0,0,0,1
0.0101684,1,0,0,1
0.01018266,0,0,0,1
0.01018274,1,0,0,1
0.01019698,0,0,0,1
0.01019706,1,0,0,1
0.01021132,0,0,0,1
0.0102114,1,0,0,1
0.01022564,0,0,0,1
0.01022574,1,0,0,1
0.01023998,0,0,0,1
0.01024006,1,0,0,1
0.01025432,0,0,0,1
0.0102544,1,0,0,1
0.01026864,0,0,0,1
0.01026874,1,0,0,1
0.01028298,0,0,0,1
0.01028306,1,0,0,1
0.01029732,0,0,0,1
0.0102974,1,0,0,1
0.01031164,0,0,0,1
0.01031174,1,0,0,1
0.01032598,0,0,0,1
0.01032606,1,0,0,1
0.01034032,0,0,0,1
0.0103404,1,0,0,1
0.01035464,0,0,0,1
0.01035474,1,0,0,1
0.01036898,0,0,0,1
0.01036906,1,0,0,1
0.01038332,0,0,0,1
0.0103834,1,0,0,1
0.01039764,0,0,0,1
0.01039774,1,0,0,1
0.01041198,0,0,0,1
0.01041206,1,0,0,1
0.01042632,0,0,0,1
0.0104264,1,0,0,1
0.01044064,0,0,0,1
0.01044074,1,0,0,1
0.01045498,0,0,0,1
0.01045506,1,0,0,1
0.01046932,0,0,0,1
0.0104694,1,0,0,1
0.01048364,0,0,0,1
0.01048372,1,0,0,1
0.01049798,0,0,0,1
0.01049806,1,0,0,1
0.01051232,0,0,0,1
0.0105124,1,0,0,1
0.01052664,0,0,0,1
0.01052672,1,0,0,1
0.01054098,0,0,0,1
0.01054106,1,0,0,1
0.01055532,0,0,0,1
0.0105554,1,0,0,1
0.01056964,0,0,0,1
0.01056972,1,0,0,1
0.01058398,0,0,0,1
0.01058406,1,0,0,1
0.0105983,0,0,0,1
0.0105984,1,0,0,1
0.01061264,0,0,0,1
0.01061272,1,0,0,1
0.01062698,0,0,0,1
0.01062706,1,0,0,1
0.0106413,0,0,0,1
0.0106414,1,0,0,1
0.01065564,0,0,0,1
0.01065572,1,0,0,1
0.01066998,0,0,0,1
0.01067006,1,0,0,1
0.0106843,0,0,0,1
0.0106844,1,0,0,1
0.01069864,0,0,0,1
0.01069872,1,0,0,1
0.01071298,0,0,0,1
0.01071306,1,0,0,1
0.0107273,0,0,0,1
0.0107274,1,0,0,1
0.01074164,0,0,0,1
0.01074172,1,0,0,1
0.01075598,0,0,0,1
0.01075606,1,0,0,1
0.0107703,0,0,0,1
0.0107704,1,0,0,1
0.01078464,0,0,0,1
0.01078472,1,0,0,1
0.01079898,0,0,0,1
0.01079906,1,0,0,1
0.0108133,0,0,0,1
0.01081338,1,0,0,1
0.01082764,0,0,0,1
0.01082772,1,0,0,1
0.01084198,0,0,0,1
0.01084206,1,0,0,1
0.0108563,0,0,0,1
0.01085638,1,0,0,1
0.01087064,0,0,0,1
0.01087072,1,0,0,1
0.01088498,0,0,0,1
0.01088506,1,0,0,1
0.0108993,0,0,0,1
0.01089938,1,0,0,1
0.01091364,0,0,0,1
0.01091372,1,0,0,1
0.01092798,0,0,0,1
0.01092806,1,0,0,1
0.0109423,0,0,0,1
0.01094238,1,0,0,1
0.01095664,0,0,0,1
0.01095672,1,0,0,1
0.01097096,0,0,0,1
0.01097106,1,0,0,1
0.0109853,0,0,0,1
0.01098538,1,0,0,1
0.01099964,0,0,0,1
0.01099972,1,0,0,1
0.01101396,0,0,0,1
0.01101406,1,0,0,1
0.0110283,0,0,0,1
0.01102838,1,0,0,1
0.01104264,0,0,0,1
0.01104272,1,0,0,1
0.01105696,0,0,0,1
0.01105706,1,0,0,1
0.0110713,0,0,0,1
0.01107138,1,0,0,1
0.01108564,0,0,0,1
0.01108572,1,0,0,1
0.01109996,0,0,0,1
0.01110006,1,0,0,1
0.0111143,0,0,0,1
0.01111438,1,0,0,1
0.01112864,0,0,0,1
0.01112872,1,0,0,1
0.01114296,0,0,0,1
0.01114306,1,0,0,1
0.0111573,0,0,0,1
0.01115738,1,0,0,1
0.01117164,0,0,0,1
0.01117172,1,0,0,1
0.01118596,0,0,0,1
0.01118604,1,0,0,1
0.0112003,0,0,0,1
0.01120038,1,0,0,1
0.01121464,0,0,0,1
0.01121472,1,0,0,1
0.01122896,0,0,0,1
0.01122904,1,0,0,1
0.0112433,0,0,0,1
0.01124338,1,0,0,1
0.01125764,0,0,0,1
0.01125772,1,0,0,1
0.01127196,0,0,0,1
0.01127204,1,0,0,1
0.0112863,0,0,0,1
0.01128638,1,0,0,1
0.01130064,0,0,0,1
0.01130072,1,0,0,1
0.01131496,0,0,0,1
0.01131504,1,0,0,1
0.0113293,0,0,0,1
0.01132938,1,0,0,1
0.01134362,0,0,0,1
0.01134372,1,0,0,1
0.01135796,0,0,0,1
0.01135804,1,0,0,1
0.0113723,0,0,0,1
0.01137238,1,0,0,1
0.01138662,0,0,0,1
0.01138672,1,0,0,1
0.01140096,0,0,0,1
0.01140104,1,0,0,1
0.0114153,0,0,0,1
0.01141538,1,0,0,1
0.01142962,0,0,0,1
0.01142972,1,0,0,1
0.01144396,0,0,0,1
0.01144404,1,0,0,1
0.0114583,0,0,0,1
0.01145838,1,0,0,1
0.01147262,0,0,0,1
0.01147272,1,0,0,1
0.01148696,0,0,0,1
0.01148704,1,0,0,1
0.0115013,0,0,0,1
0.01150138,1,0,0,1
0.01151562,0,0,0,1
0.01151572,1,0,0,1
0.01152996,0,0,0,1
0.01153004,1,0,0,1
0.0115443,0,0,0,1
0.01154438,1,0,0,1
0.01155862,0,0,0,1
0.0115587,1,0,0,1
0.01157296,0,0,0,1
0.01157304,1,0,0,1
0.0115873,0,0,0,1
0.01158738,1,0,0,1
0.01160162,0,0,0,1
0.0116017,1,0,0,1
0.01161596,0,0,0,1
0.01161604,1,0,0,1
0.0116303,0,0,0,1
0.01163038,1,0,0,1
0.01164462,0,0,0,1
0.0116447,1,0,0,1
0.01165896,0,0,0,1
0.01165904,1,0,0,1
0.0116733,0,0,0,1
0.01167338,1,0,0,1
0.01168762,0,0,0,1
0.0116877,1,0,0,1
0.01170196,0,0,0,1
0.01170204,1,0,0,1
0.01171628,0,0,0,1
0.01171638,1,0,0,1
0.01173062,0,0,0,1
0.0117307,1,0,0,1
0.01174496,0,0,0,1
0.01174504,1,0,0,1
0.01175928,0,0,0,1
0.01175938,1,0,0,1
0.01177362,0,0,0,1
0.0117737,1,0,0,1
0.01178796,0,0,0,1
0.01178804,1,0,0,1
0.01180228,0,0,0,1
0.01180238,1,0,0,1
0.01181662,0,0,0,1
0.0118167,1,0,0,1
0.01183096,0,0,0,1
0.01183104,1,0,0,1
0.01184528,0,0,0,1
0.01184538,1,0,0,1
0.01185962,0,0,0,1
0.0118597,1,0,0,1
0.01187396,0,0,0,1
0.01187404,1,0,0,1
0.01188828,0,0,0,1
0.01188838,1,0,0,1
0.01190262,0,0,0,1
0.0119027,1,0,0,1
0.01191696,0,0,0,1
0.01191704,1,0,0,1
0.01193128,0,0,0,1
0.01193136,1,0,0,1
0.01194562,0,0,0,1
0.0119457,1,0,0,1
0.01195996,0,0,0,1
0.01196004,1,0,0,1
0.01197428,0,0,0,1
0.01197436,1,0,0,1
0.01198862,0,0,0,1
0.0119887,1,0,0,1
0.01200296,0,0,0,1
0.01200304,1,0,0,1
0.01201728,0,0,0,1
0.01201736,1,0,0,1
0.01203162,0,0,0,1
0.0120317,1,0,0,1
0.01204596,0,0,0,1
0.01204604,1,0,0,1
0.01206028,0,0,0,1
0.01206036,1,0,0,1
0.01207462,0,0,0,1
0.0120747,1,0,0,1
0.01208894,0,0,0,1
0.01208904,1,0,0,1
